! TOUCHSTONE file generated by CST MICROWAVE STUDIO
! Date and time: Mon Jan 19 13:48:54 2026
! Project name: MED_opt.cst
! Parameters = {G=5; H=21; L=30; SMAh=5; W=65; Wm=3; gth=1.5; gw=150; pth=0.04; q=5; r_in=0.4; r_out=0.8; reh=3; s_r=0.6; sh=1.2; sph=1.3}
! Header version: 2024
! Port assignment regex: !\s*Touchstone port\s*([0-9]+)\s*=\s*(CST MWS port|CST DES external port|CST DES block port)\s*(.+)\s* \(\"(.*)\"\)(\s*mode\s*([0-9]+))?.*
! Touchstone port assignment:
! Touchstone port 1 = CST MWS port 1 ("")
# GHz S MA R 50
1.5                    0.9944455       -129.0684
1.51                   0.9904787       -132.1738
1.52                   0.9831968       -135.3368
1.53                   0.9727681       -138.5406
1.54                   0.9593904        -141.774
1.55                    0.943265       -145.0297
1.56                   0.9245791        -148.304
1.57                    0.903495       -151.5963
1.58                   0.8801432       -154.9078
1.59                   0.8546208       -158.2409
1.6                    0.8269916       -161.5992
1.61                   0.7972889       -164.9862
1.62                   0.7655199       -168.4052
1.63                   0.7316716       -171.8582
1.64                   0.6957182       -175.3452
1.65                     0.65763       -178.8634
1.66                   0.6173845        177.5946
1.67                   0.5749798        174.0429
1.68                   0.5304493         170.505
1.69                     0.48388        167.0189
1.7                    0.4354321         163.644
1.71                    0.385362        160.4749
1.72                   0.3340496        157.6647
1.73                   0.2820383        155.4741
1.74                   0.2301093        154.3775
1.75                   0.1794683        155.3211
1.76                   0.1322999        160.3976
1.77                  0.09358784        174.3621
1.78                  0.07508368       -157.1947
1.79                  0.08696709       -127.6262
1.8                    0.1173499       -112.3334
1.81                   0.1528947       -106.3975
1.82                   0.1882902       -104.7597
1.83                   0.2215852       -105.1721
1.84                   0.2519937       -106.6309
1.85                   0.2792156       -108.6408
1.86                   0.3031977       -110.9345
1.87                    0.324029       -113.3573
1.88                   0.3418856       -115.8153
1.89                   0.3569966       -118.2496
1.9                    0.3696204       -120.6234
1.91                   0.3800284       -122.9139
1.92                   0.3884927        -125.108
1.93                   0.3952773       -127.1995
1.94                   0.4006315       -129.1874
1.95                    0.404785       -131.0744
1.96                   0.4079443       -132.8667
1.97                   0.4102898       -134.5725
1.98                    0.411975       -136.2017
1.99                   0.4131245       -137.7657
2                      0.4138353       -139.2759
2.01                   0.4141775       -140.7444
2.02                   0.4141961       -142.1821
2.03                   0.4139143       -143.5993
2.04                   0.4133367       -145.0048
2.05                   0.4124532       -146.4058
2.06                   0.4112433       -147.8076
2.07                   0.4096798       -149.2136
2.08                   0.4077328       -150.6253
2.09                   0.4053731       -152.0425
2.1                    0.4025744       -153.4636
2.11                   0.3993164       -154.8854
2.12                   0.3955854       -156.3038
2.13                   0.3913761       -157.7136
2.14                   0.3866914       -159.1092
2.15                   0.3815431       -160.4843
2.16                   0.3759511       -161.8326
2.17                   0.3699432       -163.1476
2.18                   0.3635537       -164.4229
2.19                   0.3568224       -165.6526
2.2                    0.3497938        -166.831
2.21                   0.3425148        -167.953
2.22                   0.3350338       -169.0144
2.23                   0.3273991       -170.0116
2.24                   0.3196567       -170.9417
2.25                   0.3118499        -171.803
2.26                   0.3040171       -172.5943
2.27                   0.2961914        -173.315
2.28                   0.2883997        -173.965
2.29                   0.2806628       -174.5446
2.3                     0.272995       -175.0538
2.31                   0.2654053       -175.4922
2.32                   0.2578984       -175.8586
2.33                   0.2504757       -176.1507
2.34                   0.2431376       -176.3647
2.35                    0.235885       -176.4951
2.36                   0.2287214       -176.5342
2.37                   0.2216549       -176.4728
2.38                      0.2147       -176.2994
2.39                    0.207879       -176.0009
2.4                    0.2012233       -175.5632
2.41                   0.1947741       -174.9714
2.42                   0.1885825       -174.2115
2.43                   0.1827087        -173.271
2.44                   0.1772208        -172.141
2.45                   0.1721921       -170.8178
2.46                    0.167698        -169.305
2.47                   0.1638114       -167.6149
2.48                    0.160598       -165.7696
2.49                   0.1581108       -163.8011
2.5                    0.1563858       -161.7501
2.51                   0.1554385       -159.6635
2.52                    0.155262       -157.5905
2.53                   0.1558279       -155.5792
2.54                   0.1570887       -153.6722
2.55                   0.1589824       -151.9045
2.56                   0.1614376       -150.3016
2.57                   0.1643788       -148.8797
2.58                   0.1677309       -147.6462
2.59                   0.1714234       -146.6014
2.6                    0.1753928       -145.7405
2.61                    0.179584        -145.055
2.62                    0.183951       -144.5346
2.63                   0.1884568       -144.1683
2.64                    0.193072       -143.9453
2.65                   0.1977741       -143.8556
2.66                   0.2025459       -143.8906
2.67                    0.207374       -144.0428
2.68                   0.2122471       -144.3064
2.69                   0.2171552       -144.6765
2.7                     0.222088       -145.1493
2.71                   0.2270343       -145.7218
2.72                   0.2319813       -146.3917
2.73                   0.2369146       -147.1568
2.74                   0.2418177       -148.0149
2.75                   0.2466728       -148.9642
2.76                   0.2514607       -150.0022
2.77                   0.2561618       -151.1265
2.78                   0.2607561       -152.3345
2.79                   0.2652246        -153.623
2.8                    0.2695495        -154.989
2.81                   0.2737148       -156.4293
2.82                   0.2777068       -157.9404
2.83                   0.2815148       -159.5192
2.84                   0.2851309       -161.1626
2.85                   0.2885506       -162.8676
2.86                   0.2917721       -164.6318
2.87                   0.2947972        -166.453
2.88                   0.2976303       -168.3294
2.89                   0.3002786       -170.2597
2.9                    0.3027514       -172.2431
2.91                   0.3050602       -174.2795
2.92                   0.3072176        -176.369
2.93                   0.3092377       -178.5123
2.94                   0.3111352        179.2895
2.95                   0.3129253        177.0349
2.96                   0.3146233        174.7218
2.97                   0.3162445        172.3484
2.98                   0.3178037        169.9122
2.99                   0.3193157        167.4108
3                      0.3207948        164.8419
3.01                   0.3222549         162.203
3.02                   0.3237099         159.492
3.03                   0.3251735        156.7069
3.04                   0.3266597        153.8461
3.05                   0.3281825        150.9083
3.06                    0.329757        147.8928
3.07                   0.3313985        144.7993
3.08                   0.3331231         141.628
3.09                   0.3349482        138.3799
3.1                    0.3368919        135.0565
3.11                   0.3389736        131.6602
3.12                   0.3412133        128.1939
3.13                   0.3436319        124.6612
3.14                   0.3462512        121.0666
3.15                   0.3490931         117.415
3.16                     0.35218        113.7121
3.17                   0.3555339        109.9641
3.18                   0.3591766        106.1777
3.19                   0.3631291          102.36
3.2                    0.3674113        98.51839
3.21                   0.3720419        94.66022
3.22                   0.3770379        90.79301
3.23                   0.3824141        86.92405
3.24                   0.3881834        83.06036
3.25                   0.3943562        79.20856
3.26                   0.4009396        75.37468
3.27                   0.4079382        71.56419
3.28                   0.4153527         67.7818
3.29                   0.4231799        64.03155
3.3                    0.4314129        60.31669
3.31                   0.4400398        56.63981
3.32                   0.4490439        53.00282
3.33                   0.4584032        49.40706
3.34                   0.4680903        45.85344
3.35                   0.4780722        42.34251
3.36                   0.4883103        38.87465
3.37                   0.4987605        35.45017
3.38                   0.5093743        32.06943
3.39                   0.5200991        28.73297
3.4                    0.5308791        25.44164
3.41                   0.5416573        22.19659
3.42                   0.5523765        18.99938
3.43                   0.5629812        15.85194
3.44                   0.5734202        12.75657
3.45                   0.5836471        9.715848
3.46                   0.5936239        6.732511
3.47                   0.6033211         3.80937
3.48                   0.6127197       0.9491291
3.49                   0.6218114        -1.84578
3.5                    0.6305994       -4.573367
3.51                   0.6390977       -7.232247
3.52                   0.6473294       -9.821786
3.53                   0.6553254       -12.34225
3.54                   0.6631227       -14.79482
3.55                   0.6707598       -17.18169
3.56                   0.6782757       -19.50602
3.57                    0.685705       -21.77181
3.58                    0.693076       -23.98382
3.59                   0.7004071       -26.14732
3.6                    0.7077048       -28.26788
3.61                   0.7149617       -30.35107
3.62                   0.7221567       -32.40214
3.63                   0.7292541       -34.42579
3.64                   0.7362055       -36.42587
3.65                    0.742952       -38.40515
3.66                   0.7494274       -40.36513
3.67                    0.755562       -42.30604
3.68                   0.7612876       -44.22671
3.69                   0.7665416       -46.12469
3.7                    0.7712718        -47.9964
